popo,popo
3,3A,0D
1,C,,,A,1,0,0.0,-32767,32767
2,D,,,A,1,0,0.0,-32767,32767
3,E,,,A,1,0,0.0,-32767,32767
50
1
2000.0,2372
20/09/17 ,11:43:52
20/09/17 ,11:43:52
ASCII
1,0,1500,1221.271456,488.6719583
2,0.0005,1481.532511,1069.994178,260.805285
3,0.001,1426.584774,892.3700916,26.51672009
4,0.0015,1336.509786,692.7728924,-208.4247745
5,0.002,1213.525492,476.1173254,-438.2341594
6,0.0025,1060.660172,247.7381697,-657.2527649
7,0.003,881.6778784,13.25887803,-860.0876261
8,0.0035,680.9857496,-221.5468912,-1041.744275
9,0.004,463.5254916,-450.8974407,-1197.749723
10,0.0045,234.6516976,-669.1453987,-1324.262598
11,0.005,-5.74248E-13,-870.9167763,-1418.167732
12,0.0055,-234.6516976,-1051.243292,-1477.152871
13,0.006,-463.5254916,-1205.68471,-1499.765603
14,0.0065,-680.9857496,-1330.438168,-1485.449129
15,0.007,-881.6778784,-1422.431823,-1434.555967
16,0.0075,-1060.660172,-1479.400486,-1348.339276
17,0.008,-1213.525492,-1499.9414,-1228.921997
18,0.0085,-1336.509786,-1483.548777,-1079.244581
19,0.009,-1426.584774,-1430.626261,-902.9925805
20,0.0095,-1481.532511,-1342.476978,-704.5059061
21,0.01,-1500,-1221.271456,-488.6719583
22,0.0105,-1481.532511,-1069.994178,-260.805285
23,0.011,-1426.584774,-892.3700916,-26.51672009
24,0.0115,-1336.509786,-692.7728924,208.4247745
25,0.012,-1213.525492,-476.1173254,438.2341594
26,0.0125,-1060.660172,-247.7381697,657.2527649
27,0.013,-881.6778784,-13.25887803,860.0876261
28,0.0135,-680.9857496,221.5468912,1041.744275
29,0.014,-463.5254916,450.8974407,1197.749723
30,0.0145,-234.6516976,669.1453987,1324.262598
31,0.015,5.05341E-12,870.9167763,1418.167732
32,0.0155,234.6516976,1051.243292,1477.152871
33,0.016,463.5254916,1205.68471,1499.765603
34,0.0165,680.9857496,1330.438168,1485.449129
35,0.017,881.6778784,1422.431823,1434.555967
36,0.0175,1060.660172,1479.400486,1348.339276
37,0.018,1213.525492,1499.9414,1228.921997
38,0.0185,1336.509786,1483.548777,1079.244581
39,0.019,1426.584774,1430.626261,902.9925805
40,0.0195,1481.532511,1342.476978,704.5059061
41,0.02,1500,1221.271456,488.6719583
42,0.0205,1481.532511,1069.994178,260.805285
43,0.021,1426.584774,892.3700916,26.51672009
44,0.0215,1336.509786,692.7728924,-208.4247745
45,0.022,1213.525492,476.1173254,-438.2341594
46,0.0225,1060.660172,247.7381697,-657.2527649
47,0.023,881.6778784,13.25887803,-860.0876261
48,0.0235,680.9857496,-221.5468912,-1041.744275
49,0.024,463.5254916,-450.8974407,-1197.749723
50,0.0245,234.6516976,-669.1453987,-1324.262598
51,0.025,-8.86644E-12,-870.9167763,-1418.167732
52,0.0255,-234.6516976,-1051.243292,-1477.152871
53,0.026,-463.5254916,-1205.68471,-1499.765603
54,0.0265,-680.9857496,-1330.438168,-1485.449129
55,0.027,-881.6778784,-1422.431823,-1434.555967
56,0.0275,-1060.660172,-1479.400486,-1348.339276
57,0.028,-1213.525492,-1499.9414,-1228.921997
58,0.0285,-1336.509786,-1483.548777,-1079.244581
59,0.029,-1426.584774,-1430.626261,-902.9925805
60,0.0295,-1481.532511,-1342.476978,-704.5059061
61,0.03,-1500,-1221.271456,-488.6719583
62,0.0305,-1481.532511,-1069.994178,-260.805285
63,0.031,-1426.584774,-892.3700916,-26.51672009
64,0.0315,-1336.509786,-692.7728924,208.4247745
65,0.032,-1213.525492,-476.1173254,438.2341594
66,0.0325,-1060.660172,-247.7381697,657.2527649
67,0.033,-881.6778784,-13.25887803,860.0876261
68,0.0335,-680.9857496,221.5468912,1041.744275
69,0.034,-463.5254916,450.8974407,1197.749723
70,0.0345,-234.6516976,669.1453987,1324.262598
71,0.035,1.26795E-11,870.9167763,1418.167732
72,0.0355,234.6516976,1051.243292,1477.152871
73,0.036,463.5254916,1205.68471,1499.765603
74,0.0365,680.9857496,1330.438168,1485.449129
75,0.037,881.6778784,1422.431823,1434.555967
76,0.0375,1060.660172,1479.400486,1348.339276
77,0.038,1213.525492,1499.9414,1228.921997
78,0.0385,1336.509786,1483.548777,1079.244581
79,0.039,1426.584774,1430.626261,902.9925805
80,0.0395,1481.532511,1342.476978,704.5059061
81,0.04,1500,1221.271456,488.6719583
82,0.0405,1481.532511,1069.994178,260.805285
83,0.041,1426.584774,892.3700916,26.51672009
84,0.0415,1336.509786,692.7728924,-208.4247745
85,0.042,1213.525492,476.1173254,-438.2341594
86,0.0425,1060.660172,247.7381697,-657.2527649
87,0.043,881.6778784,13.25887803,-860.0876261
88,0.0435,680.9857496,-221.5468912,-1041.744275
89,0.044,463.5254916,-450.8974407,-1197.749723
90,0.0445,234.6516976,-669.1453987,-1324.262598
91,0.045,-1.51602E-11,-870.9167763,-1418.167732
92,0.0455,-234.6516976,-1051.243292,-1477.152871
93,0.046,-463.5254916,-1205.68471,-1499.765603
94,0.0465,-680.9857496,-1330.438168,-1485.449129
95,0.047,-881.6778784,-1422.431823,-1434.555967
96,0.0475,-1060.660172,-1479.400486,-1348.339276
97,0.048,-1213.525492,-1499.9414,-1228.921997
98,0.0485,-1336.509786,-1483.548777,-1079.244581
99,0.049,-1426.584774,-1430.626261,-902.9925805
100,0.0495,-1481.532511,-1342.476978,-704.5059061
101,0.05,-1500,-1221.271456,-488.6719583
102,0.0505,-1481.532511,-1069.994178,-260.805285
103,0.051,-1426.584774,-892.3700916,-26.51672009
104,0.0515,-1336.509786,-692.7728924,208.4247745
105,0.052,-1213.525492,-476.1173254,438.2341594
106,0.0525,-1060.660172,-247.7381697,657.2527649
107,0.053,-881.6778784,-13.25887803,860.0876261
108,0.0535,-680.9857496,221.5468912,1041.744275
109,0.054,-463.5254916,450.8974407,1197.749723
110,0.0545,-234.6516976,669.1453987,1324.262598
111,0.055,1.7641E-11,870.9167763,1418.167732
112,0.0555,234.6516976,1051.243292,1477.152871
113,0.056,463.5254916,1205.68471,1499.765603
114,0.0565,680.9857496,1330.438168,1485.449129
115,0.057,881.6778784,1422.431823,1434.555967
116,0.0575,1060.660172,1479.400486,1348.339276
117,0.058,1213.525492,1499.9414,1228.921997
118,0.0585,1336.509786,1483.548777,1079.244581
119,0.059,1426.584774,1430.626261,902.9925805
120,0.0595,1481.532511,1342.476978,704.5059061
121,0.06,1500,1221.271456,488.6719583
122,0.0605,1481.532511,1069.994178,260.805285
123,0.061,1426.584774,892.3700916,26.51672009
124,0.0615,1336.509786,692.7728924,-208.4247745
125,0.062,1213.525492,476.1173254,-438.2341594
126,0.0625,1060.660172,247.7381697,-657.2527649
127,0.063,881.6778784,13.25887803,-860.0876261
128,0.0635,680.9857496,-221.5468912,-1041.744275
129,0.064,463.5254916,-450.8974407,-1197.749723
130,0.0645,234.6516976,-669.1453987,-1324.262598
131,0.065,-2.27863E-11,-870.9167763,-1418.167732
132,0.0655,-234.6516976,-1051.243292,-1477.152871
133,0.066,-463.5254916,-1205.68471,-1499.765603
134,0.0665,-680.9857496,-1330.438168,-1485.449129
135,0.067,-881.6778784,-1422.431823,-1434.555967
136,0.0675,-1060.660172,-1479.400486,-1348.339276
137,0.068,-1213.525492,-1499.9414,-1228.921997
138,0.0685,-1336.509786,-1483.548777,-1079.244581
139,0.069,-1426.584774,-1430.626261,-902.9925805
140,0.0695,-1481.532511,-1342.476978,-704.5059061
141,0.07,-1500,-1221.271456,-488.6719583
142,0.0705,-1481.532511,-1069.994178,-260.805285
143,0.071,-1426.584774,-892.3700916,-26.51672009
144,0.0715,-1336.509786,-692.7728924,208.4247745
145,0.072,-1213.525492,-476.1173254,438.2341594
146,0.0725,-1060.660172,-247.7381697,657.2527649
147,0.073,-881.6778784,-13.25887803,860.0876261
148,0.0735,-680.9857496,221.5468912,1041.744275
149,0.074,-463.5254916,450.8974407,1197.749723
150,0.0745,-234.6516976,669.1453987,1324.262598
151,0.075,2.26025E-11,870.9167763,1418.167732
152,0.0755,234.6516976,1051.243292,1477.152871
153,0.076,463.5254916,1205.68471,1499.765603
154,0.0765,680.9857496,1330.438168,1485.449129
155,0.077,881.6778784,1422.431823,1434.555967
156,0.0775,1060.660172,1479.400486,1348.339276
157,0.078,1213.525492,1499.9414,1228.921997
158,0.0785,1336.509786,1483.548777,1079.244581
159,0.079,1426.584774,1430.626261,902.9925805
160,0.0795,1481.532511,1342.476978,704.5059061
161,0.08,1500,1221.271456,488.6719583
162,0.0805,1481.532511,1069.994178,260.805285
163,0.081,1426.584774,892.3700916,26.51672009
164,0.0815,1336.509786,692.7728924,-208.4247745
165,0.082,1213.525492,476.1173254,-438.2341594
166,0.0825,1060.660172,247.7381697,-657.2527649
167,0.083,881.6778784,13.25887803,-860.0876261
168,0.0835,680.9857496,-221.5468912,-1041.744275
169,0.084,463.5254916,-450.8974407,-1197.749723
170,0.0845,234.6516976,-669.1453987,-1324.262598
171,0.085,-2.77478E-11,-870.9167763,-1418.167732
172,0.0855,-234.6516976,-1051.243292,-1477.152871
173,0.086,-463.5254916,-1205.68471,-1499.765603
174,0.0865,-680.9857496,-1330.438168,-1485.449129
175,0.087,-881.6778784,-1422.431823,-1434.555967
176,0.0875,-1060.660172,-1479.400486,-1348.339276
177,0.088,-1213.525492,-1499.9414,-1228.921997
178,0.0885,-1336.509786,-1483.548777,-1079.244581
179,0.089,-1426.584774,-1430.626261,-902.9925805
180,0.0895,-1481.532511,-1342.476978,-704.5059061
181,0.09,-1500,-1221.271456,-488.6719583
182,0.0905,-1481.532511,-1069.994178,-260.805285
183,0.091,-1426.584774,-892.3700916,-26.51672009
184,0.0915,-1336.509786,-692.7728924,208.4247745
185,0.092,-1213.525492,-476.1173254,438.2341594
186,0.0925,-1060.660172,-247.7381697,657.2527649
187,0.093,-881.6778784,-13.25887803,860.0876261
188,0.0935,-680.9857496,221.5468912,1041.744275
189,0.094,-463.5254916,450.8974407,1197.749723
190,0.0945,-234.6516976,669.1453987,1324.262598
191,0.095,3.28931E-11,870.9167763,1418.167732
192,0.0955,234.6516976,1051.243292,1477.152871
193,0.096,463.5254916,1205.68471,1499.765603
194,0.0965,680.9857496,1330.438168,1485.449129
195,0.097,881.6778784,1422.431823,1434.555967
196,0.0975,1060.660172,1479.400486,1348.339276
197,0.098,1213.525492,1499.9414,1228.921997
198,0.0985,1336.509786,1483.548777,1079.244581
199,0.099,1426.584774,1430.626261,902.9925805
200,0.0995,1481.532511,1342.476978,704.5059061
201,0.1,1500,1221.271456,488.6719583
202,0.1005,1481.532511,1069.994178,260.805285
203,0.101,1426.584774,892.3700916,26.51672009
204,0.1015,1336.509786,692.7728924,-208.4247745
205,0.102,1213.525492,476.1173254,-438.2341594
206,0.1025,1060.660172,247.7381697,-657.2527649
207,0.103,881.6778784,13.25887803,-860.0876261
208,0.1035,680.9857496,-221.5468912,-1041.744275
209,0.104,463.5254916,-450.8974407,-1197.749723
210,0.1045,234.6516976,-669.1453987,-1324.262598
211,0.105,-3.27093E-11,-870.9167763,-1418.167732
212,0.1055,-234.6516976,-1051.243292,-1477.152871
213,0.106,-463.5254916,-1205.68471,-1499.765603
214,0.1065,-680.9857496,-1330.438168,-1485.449129
215,0.107,-881.6778784,-1422.431823,-1434.555967
216,0.1075,-1060.660172,-1479.400486,-1348.339276
217,0.108,-1213.525492,-1499.9414,-1228.921997
218,0.1085,-1336.509786,-1483.548777,-1079.244581
219,0.109,-1426.584774,-1430.626261,-902.9925805
220,0.1095,-1481.532511,-1342.476978,-704.5059061
221,0.11,-1500,-1221.271456,-488.6719583
222,0.1105,-1481.532511,-1069.994178,-260.805285
223,0.111,-1426.584774,-892.3700916,-26.51672009
224,0.1115,-1336.509786,-692.7728924,208.4247745
225,0.112,-1213.525492,-476.1173254,438.2341594
226,0.1125,-1060.660172,-247.7381697,657.2527649
227,0.113,-881.6778784,-13.25887803,860.0876261
228,0.1135,-680.9857496,221.5468912,1041.744275
229,0.114,-463.5254916,450.8974407,1197.749723
230,0.1145,-234.6516976,669.1453987,1324.262598
231,0.115,3.78546E-11,870.9167763,1418.167732
232,0.1155,234.6516976,1051.243292,1477.152871
233,0.116,463.5254916,1205.68471,1499.765603
234,0.1165,680.9857496,1330.438168,1485.449129
235,0.117,881.6778784,1422.431823,1434.555967
236,0.1175,1060.660172,1479.400486,1348.339276
237,0.118,1213.525492,1499.9414,1228.921997
238,0.1185,1336.509786,1483.548777,1079.244581
239,0.119,1426.584774,1430.626261,902.9925805
240,0.1195,1481.532511,1342.476978,704.5059061
241,0.12,1500,1221.271456,488.6719583
242,0.1205,1481.532511,1069.994178,260.805285
243,0.121,1426.584774,892.3700916,26.51672009
244,0.1215,1336.509786,692.7728924,-208.4247745
245,0.122,1213.525492,476.1173254,-438.2341594
246,0.1225,1060.660172,247.7381697,-657.2527649
247,0.123,881.6778784,13.25887803,-860.0876261
248,0.1235,680.9857496,-221.5468912,-1041.744275
249,0.124,463.5254916,-450.8974407,-1197.749723
250,0.1245,234.6516976,-669.1453987,-1324.262598
251,0.125,-4.29999E-11,-870.9167763,-1418.167732
252,0.1255,-234.6516976,-1051.243292,-1477.152871
253,0.126,-463.5254916,-1205.68471,-1499.765603
254,0.1265,-680.9857496,-1330.438168,-1485.449129
255,0.127,-881.6778784,-1422.431823,-1434.555967
256,0.1275,-1060.660172,-1479.400486,-1348.339276
257,0.128,-1213.525492,-1499.9414,-1228.921997
258,0.1285,-1336.509786,-1483.548777,-1079.244581
259,0.129,-1426.584774,-1430.626261,-902.9925805
260,0.1295,-1481.532511,-1342.476978,-704.5059061
261,0.13,-1500,-1221.271456,-488.6719583
262,0.1305,-1481.532511,-1069.994178,-260.805285
263,0.131,-1426.584774,-892.3700916,-26.51672009
264,0.1315,-1336.509786,-692.7728924,208.4247745
265,0.132,-1213.525492,-476.1173254,438.2341594
266,0.1325,-1060.660172,-247.7381697,657.2527649
267,0.133,-881.6778784,-13.25887803,860.0876261
268,0.1335,-680.9857496,221.5468912,1041.744275
269,0.134,-463.5254916,450.8974407,1197.749723
270,0.1345,-234.6516976,669.1453987,1324.262598
271,0.135,4.81452E-11,870.9167763,1418.167732
272,0.1355,234.6516976,1051.243292,1477.152871
273,0.136,463.5254916,1205.68471,1499.765603
274,0.1365,680.9857496,1330.438168,1485.449129
275,0.137,881.6778784,1422.431823,1434.555967
276,0.1375,1060.660172,1479.400486,1348.339276
277,0.138,1213.525492,1499.9414,1228.921997
278,0.1385,1336.509786,1483.548777,1079.244581
279,0.139,1426.584774,1430.626261,902.9925805
280,0.1395,1481.532511,1342.476978,704.5059061
281,0.14,1500,1221.271456,488.6719583
282,0.1405,1481.532511,1069.994178,260.805285
283,0.141,1426.584774,892.3700916,26.51672009
284,0.1415,1336.509786,692.7728924,-208.4247745
285,0.142,1213.525492,476.1173254,-438.2341594
286,0.1425,1060.660172,247.7381697,-657.2527649
287,0.143,881.6778784,13.25887803,-860.0876261
288,0.1435,680.9857496,-221.5468912,-1041.744275
289,0.144,463.5254916,-450.8974407,-1197.749723
290,0.1445,234.6516976,-669.1453987,-1324.262598
291,0.145,-5.32905E-11,-870.9167763,-1418.167732
292,0.1455,-234.6516976,-1051.243292,-1477.152871
293,0.146,-463.5254916,-1205.68471,-1499.765603
294,0.1465,-680.9857496,-1330.438168,-1485.449129
295,0.147,-881.6778784,-1422.431823,-1434.555967
296,0.1475,-1060.660172,-1479.400486,-1348.339276
297,0.148,-1213.525492,-1499.9414,-1228.921997
298,0.1485,-1336.509786,-1483.548777,-1079.244581
299,0.149,-1426.584774,-1430.626261,-902.9925805
300,0.1495,-1481.532511,-1342.476978,-704.5059061
301,0.15,-1500,-1221.271456,-488.6719583
302,0.1505,-1481.532511,-1069.994178,-260.805285
303,0.151,-1426.584774,-892.3700916,-26.51672009
304,0.1515,-1336.509786,-692.7728924,208.4247745
305,0.152,-1213.525492,-476.1173254,438.2341594
306,0.1525,-1060.660172,-247.7381697,657.2527649
307,0.153,-881.6778784,-13.25887803,860.0876261
308,0.1535,-680.9857496,221.5468912,1041.744275
309,0.154,-463.5254916,450.8974407,1197.749723
310,0.1545,-234.6516976,669.1453987,1324.262598
311,0.155,4.77777E-11,870.9167763,1418.167732
312,0.1555,234.6516976,1051.243292,1477.152871
313,0.156,463.5254916,1205.68471,1499.765603
314,0.1565,680.9857496,1330.438168,1485.449129
315,0.157,881.6778784,1422.431823,1434.555967
316,0.1575,1060.660172,1479.400486,1348.339276
317,0.158,1213.525492,1499.9414,1228.921997
318,0.1585,1336.509786,1483.548777,1079.244581
319,0.159,1426.584774,1430.626261,902.9925805
320,0.1595,1481.532511,1342.476978,704.5059061
321,0.16,1500,1221.271456,488.6719583
322,0.1605,1481.532511,1069.994178,260.805285
323,0.161,1426.584774,892.3700916,26.51672009
324,0.1615,1336.509786,692.7728924,-208.4247745
325,0.162,1213.525492,476.1173254,-438.2341594
326,0.1625,1060.660172,247.7381697,-657.2527649
327,0.163,881.6778784,13.25887803,-860.0876261
328,0.1635,680.9857496,-221.5468912,-1041.744275
329,0.164,463.5254916,-450.8974407,-1197.749723
330,0.1645,234.6516976,-669.1453987,-1324.262598
331,0.165,-5.2923E-11,-870.9167763,-1418.167732
332,0.1655,-234.6516976,-1051.243292,-1477.152871
333,0.166,-463.5254916,-1205.68471,-1499.765603
334,0.1665,-680.9857496,-1330.438168,-1485.449129
335,0.167,-881.6778784,-1422.431823,-1434.555967
336,0.1675,-1060.660172,-1479.400486,-1348.339276
337,0.168,-1213.525492,-1499.9414,-1228.921997
338,0.1685,-1336.509786,-1483.548777,-1079.244581
339,0.169,-1426.584774,-1430.626261,-902.9925805
340,0.1695,-1481.532511,-1342.476978,-704.5059061
341,0.17,-1500,-1221.271456,-488.6719583
342,0.1705,-1481.532511,-1069.994178,-260.805285
343,0.171,-1426.584774,-892.3700916,-26.51672009
344,0.1715,-1336.509786,-692.7728924,208.4247745
345,0.172,-1213.525492,-476.1173254,438.2341594
346,0.1725,-1060.660172,-247.7381697,657.2527649
347,0.173,-881.6778784,-13.25887803,860.0876261
348,0.1735,-680.9857496,221.5468912,1041.744275
349,0.174,-463.5254916,450.8974407,1197.749723
350,0.1745,-234.6516976,669.1453987,1324.262598
351,0.175,5.80683E-11,870.9167763,1418.167732
352,0.1755,234.6516976,1051.243292,1477.152871
353,0.176,463.5254916,1205.68471,1499.765603
354,0.1765,680.9857496,1330.438168,1485.449129
355,0.177,881.6778784,1422.431823,1434.555967
356,0.1775,1060.660172,1479.400486,1348.339276
357,0.178,1213.525492,1499.9414,1228.921997
358,0.1785,1336.509786,1483.548777,1079.244581
359,0.179,1426.584774,1430.626261,902.9925805
360,0.1795,1481.532511,1342.476978,704.5059061
361,0.18,1500,1221.271456,488.6719583
362,0.1805,1481.532511,1069.994178,260.805285
363,0.181,1426.584774,892.3700916,26.51672009
364,0.1815,1336.509786,692.7728924,-208.4247745
365,0.182,1213.525492,476.1173254,-438.2341594
366,0.1825,1060.660172,247.7381697,-657.2527649
367,0.183,881.6778784,13.25887803,-860.0876261
368,0.1835,680.9857496,-221.5468912,-1041.744275
369,0.184,463.5254916,-450.8974407,-1197.749723
370,0.1845,234.6516976,-669.1453987,-1324.262598
371,0.185,-6.32136E-11,-870.9167763,-1418.167732
372,0.1855,-234.6516976,-1051.243292,-1477.152871
373,0.186,-463.5254916,-1205.68471,-1499.765603
374,0.1865,-680.9857496,-1330.438168,-1485.449129
375,0.187,-881.6778784,-1422.431823,-1434.555967
376,0.1875,-1060.660172,-1479.400486,-1348.339276
377,0.188,-1213.525492,-1499.9414,-1228.921997
378,0.1885,-1336.509786,-1483.548777,-1079.244581
379,0.189,-1426.584774,-1430.626261,-902.9925805
380,0.1895,-1481.532511,-1342.476978,-704.5059061
381,0.19,-1500,-1221.271456,-488.6719583
382,0.1905,-1481.532511,-1069.994178,-260.805285
383,0.191,-1426.584774,-892.3700916,-26.51672009
384,0.1915,-1336.509786,-692.7728924,208.4247745
385,0.192,-1213.525492,-476.1173254,438.2341594
386,0.1925,-1060.660172,-247.7381697,657.2527649
387,0.193,-881.6778784,-13.25887803,860.0876261
388,0.1935,-680.9857496,221.5468912,1041.744275
389,0.194,-463.5254916,450.8974407,1197.749723
390,0.1945,-234.6516976,669.1453987,1324.262598
391,0.195,6.83589E-11,870.9167763,1418.167732
392,0.1955,234.6516976,1051.243292,1477.152871
393,0.196,463.5254916,1205.68471,1499.765603
394,0.1965,680.9857496,1330.438168,1485.449129
395,0.197,881.6778784,1422.431823,1434.555967
396,0.1975,1060.660172,1479.400486,1348.339276
397,0.198,1213.525492,1499.9414,1228.921997
398,0.1985,1336.509786,1483.548777,1079.244581
399,0.199,1426.584774,1430.626261,902.9925805
400,0.1995,1481.532511,1342.476978,704.5059061
401,0.2,1500,1221.271456,488.6719583
402,0.2005,1481.532511,1069.994178,260.805285
403,0.201,1426.584774,892.3700916,26.51672009
404,0.2015,1336.509786,692.7728924,-208.4247745
405,0.202,1213.525492,476.1173254,-438.2341594
406,0.2025,1060.660172,247.7381697,-657.2527649
407,0.203,881.6778784,13.25887803,-860.0876261
408,0.2035,680.9857496,-221.5468912,-1041.744275
409,0.204,463.5254916,-450.8974407,-1197.749723
410,0.2045,234.6516976,-669.1453987,-1324.262598
411,0.205,-7.35042E-11,-870.9167763,-1418.167732
412,0.2055,-234.6516976,-1051.243292,-1477.152871
413,0.206,-463.5254916,-1205.68471,-1499.765603
414,0.2065,-680.9857496,-1330.438168,-1485.449129
415,0.207,-881.6778784,-1422.431823,-1434.555967
416,0.2075,-1060.660172,-1479.400486,-1348.339276
417,0.208,-1213.525492,-1499.9414,-1228.921997
418,0.2085,-1336.509786,-1483.548777,-1079.244581
419,0.209,-1426.584774,-1430.626261,-902.9925805
420,0.2095,-1481.532511,-1342.476978,-704.5059061
