popo,popo
3,3A,0D
1,F,,,A,1,0,0.0,-32767,32767
2,G,,,A,1,0,0.0,-32767,32767
3,H,,,A,1,0,0.0,-32767,32767
50
1
2000.0,2372
18/09/17 ,14:14:14
18/09/17 ,14:14:14
ASCII
1,0,2000,-896.1472323,-1196.920138
2,0.0005,1975.376681,-1164.817952,-931.5282971
3,0.001,1902.113033,-1404.806989,-643.1991378
4,0.0015,1782.013048,-1610.205015,-339.0322811
5,0.002,1618.033989,-1775.954449,-26.51732441
6,0.0025,1414.213562,-1897.973991,286.6505768
7,0.003,1175.570505,-1973.259115,592.7601894
8,0.0035,907.9809995,-1999.95605,884.274079
9,0.004,618.0339887,-1977.407429,1154.014206
10,0.0045,312.8689301,-1906.168475,1395.338673
11,0.005,-7.65664E-13,-1787.993327,1602.305271
12,0.0055,-312.8689301,-1625.791849,1769.817796
13,0.006,-618.0339887,-1423.557981,1893.751533
14,0.0065,-907.9809995,-1186.27139,1971.054822
15,0.007,-1175.570505,-919.7748605,1999.8242
16,0.0075,-1414.213562,-630.6304215,1979.351269
17,0.008,-1618.033989,-325.9577686,1910.140141
18,0.0085,-1782.013048,-13.25895357,1793.895023
19,0.009,-1902.113033,299.7663409,1633.478256
20,0.0095,-1975.376681,605.4103931,1432.839833
21,0.01,-2000,896.1472323,1196.920138
22,0.0105,-1975.376681,1164.817952,931.5282971
23,0.011,-1902.113033,1404.806989,643.1991378
24,0.0115,-1782.013048,1610.205015,339.0322811
25,0.012,-1618.033989,1775.954449,26.51732441
26,0.0125,-1414.213562,1897.973991,-286.6505768
27,0.013,-1175.570505,1973.259115,-592.7601894
28,0.0135,-907.9809995,1999.95605,-884.274079
29,0.014,-618.0339887,1977.407429,-1154.014206
30,0.0145,-312.8689301,1906.168475,-1395.338673
31,0.015,6.73788E-12,1787.993327,-1602.305271
32,0.0155,312.8689301,1625.791849,-1769.817796
33,0.016,618.0339887,1423.557981,-1893.751533
34,0.0165,907.9809995,1186.27139,-1971.054822
35,0.017,1175.570505,919.7748605,-1999.8242
36,0.0175,1414.213562,630.6304215,-1979.351269
37,0.018,1618.033989,325.9577686,-1910.140141
38,0.0185,1782.013048,13.25895357,-1793.895023
39,0.019,1902.113033,-299.7663409,-1633.478256
40,0.0195,1975.376681,-605.4103931,-1432.839833
41,0.02,2000,-896.1472323,-1196.920138
42,0.0205,1975.376681,-1164.817952,-931.5282971
43,0.021,1902.113033,-1404.806989,-643.1991378
44,0.0215,1782.013048,-1610.205015,-339.0322811
45,0.022,1618.033989,-1775.954449,-26.51732441
46,0.0225,1414.213562,-1897.973991,286.6505768
47,0.023,1175.570505,-1973.259115,592.7601894
48,0.0235,907.9809995,-1999.95605,884.274079
49,0.024,618.0339887,-1977.407429,1154.014206
50,0.0245,312.8689301,-1906.168475,1395.338673
51,0.025,-1.18219E-11,-1787.993327,1602.305271
52,0.0255,-312.8689301,-1625.791849,1769.817796
53,0.026,-618.0339887,-1423.557981,1893.751533
54,0.0265,-907.9809995,-1186.27139,1971.054822
55,0.027,-1175.570505,-919.7748605,1999.8242
56,0.0275,-1414.213562,-630.6304215,1979.351269
57,0.028,-1618.033989,-325.9577686,1910.140141
58,0.0285,-1782.013048,-13.25895357,1793.895023
59,0.029,-1902.113033,299.7663409,1633.478256
60,0.0295,-1975.376681,605.4103931,1432.839833
61,0.03,-2000,896.1472323,1196.920138
62,0.0305,-1975.376681,1164.817952,931.5282971
63,0.031,-1902.113033,1404.806989,643.1991378
64,0.0315,-1782.013048,1610.205015,339.0322811
65,0.032,-1618.033989,1775.954449,26.51732441
66,0.0325,-1414.213562,1897.973991,-286.6505768
67,0.033,-1175.570505,1973.259115,-592.7601894
68,0.0335,-907.9809995,1999.95605,-884.274079
69,0.034,-618.0339887,1977.407429,-1154.014206
70,0.0345,-312.8689301,1906.168475,-1395.338673
71,0.035,1.6906E-11,1787.993327,-1602.305271
72,0.0355,312.8689301,1625.791849,-1769.817796
73,0.036,618.0339887,1423.557981,-1893.751533
74,0.0365,907.9809995,1186.27139,-1971.054822
75,0.037,1175.570505,919.7748605,-1999.8242
76,0.0375,1414.213562,630.6304215,-1979.351269
77,0.038,1618.033989,325.9577686,-1910.140141
78,0.0385,1782.013048,13.25895357,-1793.895023
79,0.039,1902.113033,-299.7663409,-1633.478256
80,0.0395,1975.376681,-605.4103931,-1432.839833
81,0.04,2000,-896.1472323,-1196.920138
82,0.0405,1975.376681,-1164.817952,-931.5282971
83,0.041,1902.113033,-1404.806989,-643.1991378
84,0.0415,1782.013048,-1610.205015,-339.0322811
85,0.042,1618.033989,-1775.954449,-26.51732441
86,0.0425,1414.213562,-1897.973991,286.6505768
87,0.043,1175.570505,-1973.259115,592.7601894
88,0.0435,907.9809995,-1999.95605,884.274079
89,0.044,618.0339887,-1977.407429,1154.014206
90,0.0445,312.8689301,-1906.168475,1395.338673
91,0.045,-2.02136E-11,-1787.993327,1602.305271
92,0.0455,-312.8689301,-1625.791849,1769.817796
93,0.046,-618.0339887,-1423.557981,1893.751533
94,0.0465,-907.9809995,-1186.27139,1971.054822
95,0.047,-1175.570505,-919.7748605,1999.8242
96,0.0475,-1414.213562,-630.6304215,1979.351269
97,0.048,-1618.033989,-325.9577686,1910.140141
98,0.0485,-1782.013048,-13.25895357,1793.895023
99,0.049,-1902.113033,299.7663409,1633.478256
100,0.0495,-1975.376681,605.4103931,1432.839833
101,0.05,-2000,896.1472323,1196.920138
102,0.0505,-1975.376681,1164.817952,931.5282971
103,0.051,-1902.113033,1404.806989,643.1991378
104,0.0515,-1782.013048,1610.205015,339.0322811
105,0.052,-1618.033989,1775.954449,26.51732441
106,0.0525,-1414.213562,1897.973991,-286.6505768
107,0.053,-1175.570505,1973.259115,-592.7601894
108,0.0535,-907.9809995,1999.95605,-884.274079
109,0.054,-618.0339887,1977.407429,-1154.014206
110,0.0545,-312.8689301,1906.168475,-1395.338673
111,0.055,2.35213E-11,1787.993327,-1602.305271
112,0.0555,312.8689301,1625.791849,-1769.817796
113,0.056,618.0339887,1423.557981,-1893.751533
114,0.0565,907.9809995,1186.27139,-1971.054822
115,0.057,1175.570505,919.7748605,-1999.8242
116,0.0575,1414.213562,630.6304215,-1979.351269
117,0.058,1618.033989,325.9577686,-1910.140141
118,0.0585,1782.013048,13.25895357,-1793.895023
119,0.059,1902.113033,-299.7663409,-1633.478256
120,0.0595,1975.376681,-605.4103931,-1432.839833
121,0.06,2000,-896.1472323,-1196.920138
122,0.0605,1975.376681,-1164.817952,-931.5282971
123,0.061,1902.113033,-1404.806989,-643.1991378
124,0.0615,1782.013048,-1610.205015,-339.0322811
125,0.062,1618.033989,-1775.954449,-26.51732441
126,0.0625,1414.213562,-1897.973991,286.6505768
127,0.063,1175.570505,-1973.259115,592.7601894
128,0.0635,907.9809995,-1999.95605,884.274079
129,0.064,618.0339887,-1977.407429,1154.014206
130,0.0645,312.8689301,-1906.168475,1395.338673
131,0.065,-3.03817E-11,-1787.993327,1602.305271
132,0.0655,-312.8689301,-1625.791849,1769.817796
133,0.066,-618.0339887,-1423.557981,1893.751533
134,0.0665,-907.9809995,-1186.27139,1971.054822
135,0.067,-1175.570505,-919.7748605,1999.8242
136,0.0675,-1414.213562,-630.6304215,1979.351269
137,0.068,-1618.033989,-325.9577686,1910.140141
138,0.0685,-1782.013048,-13.25895357,1793.895023
139,0.069,-1902.113033,299.7663409,1633.478256
140,0.0695,-1975.376681,605.4103931,1432.839833
141,0.07,-2000,896.1472323,1196.920138
142,0.0705,-1975.376681,1164.817952,931.5282971
143,0.071,-1902.113033,1404.806989,643.1991378
144,0.0715,-1782.013048,1610.205015,339.0322811
145,0.072,-1618.033989,1775.954449,26.51732441
146,0.0725,-1414.213562,1897.973991,-286.6505768
147,0.073,-1175.570505,1973.259115,-592.7601894
148,0.0735,-907.9809995,1999.95605,-884.274079
149,0.074,-618.0339887,1977.407429,-1154.014206
150,0.0745,-312.8689301,1906.168475,-1395.338673
151,0.075,3.01367E-11,1787.993327,-1602.305271
152,0.0755,312.8689301,1625.791849,-1769.817796
153,0.076,618.0339887,1423.557981,-1893.751533
154,0.0765,907.9809995,1186.27139,-1971.054822
155,0.077,1175.570505,919.7748605,-1999.8242
156,0.0775,1414.213562,630.6304215,-1979.351269
157,0.078,1618.033989,325.9577686,-1910.140141
158,0.0785,1782.013048,13.25895357,-1793.895023
159,0.079,1902.113033,-299.7663409,-1633.478256
160,0.0795,1975.376681,-605.4103931,-1432.839833
161,0.08,2000,-896.1472323,-1196.920138
162,0.0805,1975.376681,-1164.817952,-931.5282971
163,0.081,1902.113033,-1404.806989,-643.1991378
164,0.0815,1782.013048,-1610.205015,-339.0322811
165,0.082,1618.033989,-1775.954449,-26.51732441
166,0.0825,1414.213562,-1897.973991,286.6505768
167,0.083,1175.570505,-1973.259115,592.7601894
168,0.0835,907.9809995,-1999.95605,884.274079
169,0.084,618.0339887,-1977.407429,1154.014206
170,0.0845,312.8689301,-1906.168475,1395.338673
171,0.085,-3.69971E-11,-1787.993327,1602.305271
172,0.0855,-312.8689301,-1625.791849,1769.817796
173,0.086,-618.0339887,-1423.557981,1893.751533
174,0.0865,-907.9809995,-1186.27139,1971.054822
175,0.087,-1175.570505,-919.7748605,1999.8242
176,0.0875,-1414.213562,-630.6304215,1979.351269
177,0.088,-1618.033989,-325.9577686,1910.140141
178,0.0885,-1782.013048,-13.25895357,1793.895023
179,0.089,-1902.113033,299.7663409,1633.478256
180,0.0895,-1975.376681,605.4103931,1432.839833
181,0.09,-2000,896.1472323,1196.920138
182,0.0905,-1975.376681,1164.817952,931.5282971
183,0.091,-1902.113033,1404.806989,643.1991378
184,0.0915,-1782.013048,1610.205015,339.0322811
185,0.092,-1618.033989,1775.954449,26.51732441
186,0.0925,-1414.213562,1897.973991,-286.6505768
187,0.093,-1175.570505,1973.259115,-592.7601894
188,0.0935,-907.9809995,1999.95605,-884.274079
189,0.094,-618.0339887,1977.407429,-1154.014206
190,0.0945,-312.8689301,1906.168475,-1395.338673
191,0.095,4.38575E-11,1787.993327,-1602.305271
192,0.0955,312.8689301,1625.791849,-1769.817796
193,0.096,618.0339887,1423.557981,-1893.751533
194,0.0965,907.9809995,1186.27139,-1971.054822
195,0.097,1175.570505,919.7748605,-1999.8242
196,0.0975,1414.213562,630.6304215,-1979.351269
197,0.098,1618.033989,325.9577686,-1910.140141
198,0.0985,1782.013048,13.25895357,-1793.895023
199,0.099,1902.113033,-299.7663409,-1633.478256
200,0.0995,1975.376681,-605.4103931,-1432.839833
201,0.1,2000,-896.1472323,-1196.920138
202,0.1005,1975.376681,-1164.817952,-931.5282971
203,0.101,1902.113033,-1404.806989,-643.1991378
204,0.1015,1782.013048,-1610.205015,-339.0322811
205,0.102,1618.033989,-1775.954449,-26.51732441
206,0.1025,1414.213562,-1897.973991,286.6505768
207,0.103,1175.570505,-1973.259115,592.7601894
208,0.1035,907.9809995,-1999.95605,884.274079
209,0.104,618.0339887,-1977.407429,1154.014206
210,0.1045,312.8689301,-1906.168475,1395.338673
211,0.105,-4.36125E-11,-1787.993327,1602.305271
212,0.1055,-312.8689301,-1625.791849,1769.817796
213,0.106,-618.0339887,-1423.557981,1893.751533
214,0.1065,-907.9809995,-1186.27139,1971.054822
215,0.107,-1175.570505,-919.7748605,1999.8242
216,0.1075,-1414.213562,-630.6304215,1979.351269
217,0.108,-1618.033989,-325.9577686,1910.140141
218,0.1085,-1782.013048,-13.25895357,1793.895023
219,0.109,-1902.113033,299.7663409,1633.478256
220,0.1095,-1975.376681,605.4103931,1432.839833
221,0.11,-2000,896.1472323,1196.920138
222,0.1105,-1975.376681,1164.817952,931.5282971
223,0.111,-1902.113033,1404.806989,643.1991378
224,0.1115,-1782.013048,1610.205015,339.0322811
225,0.112,-1618.033989,1775.954449,26.51732441
226,0.1125,-1414.213562,1897.973991,-286.6505768
227,0.113,-1175.570505,1973.259115,-592.7601894
228,0.1135,-907.9809995,1999.95605,-884.274079
229,0.114,-618.0339887,1977.407429,-1154.014206
230,0.1145,-312.8689301,1906.168475,-1395.338673
231,0.115,5.04729E-11,1787.993327,-1602.305271
232,0.1155,312.8689301,1625.791849,-1769.817796
233,0.116,618.0339887,1423.557981,-1893.751533
234,0.1165,907.9809995,1186.27139,-1971.054822
235,0.117,1175.570505,919.7748605,-1999.8242
236,0.1175,1414.213562,630.6304215,-1979.351269
237,0.118,1618.033989,325.9577686,-1910.140141
238,0.1185,1782.013048,13.25895357,-1793.895023
239,0.119,1902.113033,-299.7663409,-1633.478256
240,0.1195,1975.376681,-605.4103931,-1432.839833
241,0.12,2000,-896.1472323,-1196.920138
242,0.1205,1975.376681,-1164.817952,-931.5282971
243,0.121,1902.113033,-1404.806989,-643.1991378
244,0.1215,1782.013048,-1610.205015,-339.0322811
245,0.122,1618.033989,-1775.954449,-26.51732441
246,0.1225,1414.213562,-1897.973991,286.6505768
247,0.123,1175.570505,-1973.259115,592.7601894
248,0.1235,907.9809995,-1999.95605,884.274079
249,0.124,618.0339887,-1977.407429,1154.014206
250,0.1245,312.8689301,-1906.168475,1395.338673
251,0.125,-5.73333E-11,-1787.993327,1602.305271
252,0.1255,-312.8689301,-1625.791849,1769.817796
253,0.126,-618.0339887,-1423.557981,1893.751533
254,0.1265,-907.9809995,-1186.27139,1971.054822
255,0.127,-1175.570505,-919.7748605,1999.8242
256,0.1275,-1414.213562,-630.6304215,1979.351269
257,0.128,-1618.033989,-325.9577686,1910.140141
258,0.1285,-1782.013048,-13.25895357,1793.895023
259,0.129,-1902.113033,299.7663409,1633.478256
260,0.1295,-1975.376681,605.4103931,1432.839833
261,0.13,-2000,896.1472323,1196.920138
262,0.1305,-1975.376681,1164.817952,931.5282971
263,0.131,-1902.113033,1404.806989,643.1991378
264,0.1315,-1782.013048,1610.205015,339.0322811
265,0.132,-1618.033989,1775.954449,26.51732441
266,0.1325,-1414.213562,1897.973991,-286.6505768
267,0.133,-1175.570505,1973.259115,-592.7601894
268,0.1335,-907.9809995,1999.95605,-884.274079
269,0.134,-618.0339887,1977.407429,-1154.014206
270,0.1345,-312.8689301,1906.168475,-1395.338673
271,0.135,6.41937E-11,1787.993327,-1602.305271
272,0.1355,312.8689301,1625.791849,-1769.817796
273,0.136,618.0339887,1423.557981,-1893.751533
274,0.1365,907.9809995,1186.27139,-1971.054822
275,0.137,1175.570505,919.7748605,-1999.8242
276,0.1375,1414.213562,630.6304215,-1979.351269
277,0.138,1618.033989,325.9577686,-1910.140141
278,0.1385,1782.013048,13.25895357,-1793.895023
279,0.139,1902.113033,-299.7663409,-1633.478256
280,0.1395,1975.376681,-605.4103931,-1432.839833
281,0.14,2000,-896.1472323,-1196.920138
282,0.1405,1975.376681,-1164.817952,-931.5282971
283,0.141,1902.113033,-1404.806989,-643.1991378
284,0.1415,1782.013048,-1610.205015,-339.0322811
285,0.142,1618.033989,-1775.954449,-26.51732441
286,0.1425,1414.213562,-1897.973991,286.6505768
287,0.143,1175.570505,-1973.259115,592.7601894
288,0.1435,907.9809995,-1999.95605,884.274079
289,0.144,618.0339887,-1977.407429,1154.014206
290,0.1445,312.8689301,-1906.168475,1395.338673
291,0.145,-7.10541E-11,-1787.993327,1602.305271
292,0.1455,-312.8689301,-1625.791849,1769.817796
293,0.146,-618.0339887,-1423.557981,1893.751533
294,0.1465,-907.9809995,-1186.27139,1971.054822
295,0.147,-1175.570505,-919.7748605,1999.8242
296,0.1475,-1414.213562,-630.6304215,1979.351269
297,0.148,-1618.033989,-325.9577686,1910.140141
298,0.1485,-1782.013048,-13.25895357,1793.895023
299,0.149,-1902.113033,299.7663409,1633.478256
300,0.1495,-1975.376681,605.4103931,1432.839833
301,0.15,-2000,896.1472323,1196.920138
302,0.1505,-1975.376681,1164.817952,931.5282971
303,0.151,-1902.113033,1404.806989,643.1991378
304,0.1515,-1782.013048,1610.205015,339.0322811
305,0.152,-1618.033989,1775.954449,26.51732441
306,0.1525,-1414.213562,1897.973991,-286.6505768
307,0.153,-1175.570505,1973.259115,-592.7601894
308,0.1535,-907.9809995,1999.95605,-884.274079
309,0.154,-618.0339887,1977.407429,-1154.014206
310,0.1545,-312.8689301,1906.168475,-1395.338673
311,0.155,6.37036E-11,1787.993327,-1602.305271
312,0.1555,312.8689301,1625.791849,-1769.817796
313,0.156,618.0339887,1423.557981,-1893.751533
314,0.1565,907.9809995,1186.27139,-1971.054822
315,0.157,1175.570505,919.7748605,-1999.8242
316,0.1575,1414.213562,630.6304215,-1979.351269
317,0.158,1618.033989,325.9577686,-1910.140141
318,0.1585,1782.013048,13.25895357,-1793.895023
319,0.159,1902.113033,-299.7663409,-1633.478256
320,0.1595,1975.376681,-605.4103931,-1432.839833
321,0.16,2000,-896.1472323,-1196.920138
322,0.1605,1975.376681,-1164.817952,-931.5282971
323,0.161,1902.113033,-1404.806989,-643.1991378
324,0.1615,1782.013048,-1610.205015,-339.0322811
325,0.162,1618.033989,-1775.954449,-26.51732441
326,0.1625,1414.213562,-1897.973991,286.6505768
327,0.163,1175.570505,-1973.259115,592.7601894
328,0.1635,907.9809995,-1999.95605,884.274079
329,0.164,618.0339887,-1977.407429,1154.014206
330,0.1645,312.8689301,-1906.168475,1395.338673
331,0.165,-7.0564E-11,-1787.993327,1602.305271
332,0.1655,-312.8689301,-1625.791849,1769.817796
333,0.166,-618.0339887,-1423.557981,1893.751533
334,0.1665,-907.9809995,-1186.27139,1971.054822
335,0.167,-1175.570505,-919.7748605,1999.8242
336,0.1675,-1414.213562,-630.6304215,1979.351269
337,0.168,-1618.033989,-325.9577686,1910.140141
338,0.1685,-1782.013048,-13.25895357,1793.895023
339,0.169,-1902.113033,299.7663409,1633.478256
340,0.1695,-1975.376681,605.4103931,1432.839833
341,0.17,-2000,896.1472323,1196.920138
342,0.1705,-1975.376681,1164.817952,931.5282971
343,0.171,-1902.113033,1404.806989,643.1991378
344,0.1715,-1782.013048,1610.205015,339.0322811
345,0.172,-1618.033989,1775.954449,26.51732441
346,0.1725,-1414.213562,1897.973991,-286.6505768
347,0.173,-1175.570505,1973.259115,-592.7601894
348,0.1735,-907.9809995,1999.95605,-884.274079
349,0.174,-618.0339887,1977.407429,-1154.014206
350,0.1745,-312.8689301,1906.168475,-1395.338673
351,0.175,7.74244E-11,1787.993327,-1602.305271
352,0.1755,312.8689301,1625.791849,-1769.817796
353,0.176,618.0339887,1423.557981,-1893.751533
354,0.1765,907.9809995,1186.27139,-1971.054822
355,0.177,1175.570505,919.7748605,-1999.8242
356,0.1775,1414.213562,630.6304215,-1979.351269
357,0.178,1618.033989,325.9577686,-1910.140141
358,0.1785,1782.013048,13.25895357,-1793.895023
359,0.179,1902.113033,-299.7663409,-1633.478256
360,0.1795,1975.376681,-605.4103931,-1432.839833
361,0.18,2000,-896.1472323,-1196.920138
362,0.1805,1975.376681,-1164.817952,-931.5282971
363,0.181,1902.113033,-1404.806989,-643.1991378
364,0.1815,1782.013048,-1610.205015,-339.0322811
365,0.182,1618.033989,-1775.954449,-26.51732441
366,0.1825,1414.213562,-1897.973991,286.6505768
367,0.183,1175.570505,-1973.259115,592.7601894
368,0.1835,907.9809995,-1999.95605,884.274079
369,0.184,618.0339887,-1977.407429,1154.014206
370,0.1845,312.8689301,-1906.168475,1395.338673
371,0.185,-8.42848E-11,-1787.993327,1602.305271
372,0.1855,-312.8689301,-1625.791849,1769.817796
373,0.186,-618.0339887,-1423.557981,1893.751533
374,0.1865,-907.9809995,-1186.27139,1971.054822
375,0.187,-1175.570505,-919.7748605,1999.8242
376,0.1875,-1414.213562,-630.6304215,1979.351269
377,0.188,-1618.033989,-325.9577686,1910.140141
378,0.1885,-1782.013048,-13.25895357,1793.895023
379,0.189,-1902.113033,299.7663409,1633.478256
380,0.1895,-1975.376681,605.4103931,1432.839833
381,0.19,-2000,896.1472323,1196.920138
382,0.1905,-1975.376681,1164.817952,931.5282971
383,0.191,-1902.113033,1404.806989,643.1991378
384,0.1915,-1782.013048,1610.205015,339.0322811
385,0.192,-1618.033989,1775.954449,26.51732441
386,0.1925,-1414.213562,1897.973991,-286.6505768
387,0.193,-1175.570505,1973.259115,-592.7601894
388,0.1935,-907.9809995,1999.95605,-884.274079
389,0.194,-618.0339887,1977.407429,-1154.014206
390,0.1945,-312.8689301,1906.168475,-1395.338673
391,0.195,9.11452E-11,1787.993327,-1602.305271
392,0.1955,312.8689301,1625.791849,-1769.817796
393,0.196,618.0339887,1423.557981,-1893.751533
394,0.1965,907.9809995,1186.27139,-1971.054822
395,0.197,1175.570505,919.7748605,-1999.8242
396,0.1975,1414.213562,630.6304215,-1979.351269
397,0.198,1618.033989,325.9577686,-1910.140141
398,0.1985,1782.013048,13.25895357,-1793.895023
399,0.199,1902.113033,-299.7663409,-1633.478256
400,0.1995,1975.376681,-605.4103931,-1432.839833
401,0.2,2000,-896.1472323,-1196.920138
402,0.2005,1975.376681,-1164.817952,-931.5282971
403,0.201,1902.113033,-1404.806989,-643.1991378
404,0.2015,1782.013048,-1610.205015,-339.0322811
405,0.202,1618.033989,-1775.954449,-26.51732441
406,0.2025,1414.213562,-1897.973991,286.6505768
407,0.203,1175.570505,-1973.259115,592.7601894
408,0.2035,907.9809995,-1999.95605,884.274079
409,0.204,618.0339887,-1977.407429,1154.014206
410,0.2045,312.8689301,-1906.168475,1395.338673
411,0.205,-9.80056E-11,-1787.993327,1602.305271
412,0.2055,-312.8689301,-1625.791849,1769.817796
413,0.206,-618.0339887,-1423.557981,1893.751533
414,0.2065,-907.9809995,-1186.27139,1971.054822
415,0.207,-1175.570505,-919.7748605,1999.8242
416,0.2075,-1414.213562,-630.6304215,1979.351269
417,0.208,-1618.033989,-325.9577686,1910.140141
418,0.2085,-1782.013048,-13.25895357,1793.895023
419,0.209,-1902.113033,299.7663409,1633.478256
420,0.2095,-1975.376681,605.4103931,1432.839833
421,0.21,-2000,896.1472323,1196.920138
