popo,popo
3,3A,0D
1,I,,,A,1,0,0.0,-32767,32767
2,J,,,A,1,0,0.0,-32767,32767
3,K,,,A,1,0,0.0,-32767,32767
50
1
2000.0,2372
18/09/17 ,14:14:14
18/09/17 ,14:14:14
ASCII
1,0,2500,385.6286247,-2381.032451
2,0.0005,2469.220851,767.2863928,-2232.510774
3,0.001,2377.641291,1130.051023,-2029.017273
4,0.0015,2227.51631,1464.990047,-1775.562633
5,0.002,2022.542486,1763.856155,-1478.387747
6,0.0025,1767.766953,2019.290269,-1144.810049
7,0.003,1469.463131,2225.002756,-783.0433286
8,0.0035,1134.976249,2375.92829,-401.9954822
9,0.004,772.5424859,2468.350585,-11.04917294
10,0.0045,391.0861626,2499.993896,380.1692037
11,0.005,-9.57079E-13,2470.07906,762.0265528
12,0.0055,-391.0861626,2379.342681,1125.120279
13,0.006,-772.5424859,2230.018987,1460.50981
14,0.0065,-1134.976249,2025.784826,1759.936742
15,0.007,-1469.463131,1771.669119,2016.028191
16,0.0075,-1767.766953,1473.929038,2222.478335
17,0.008,-2022.542486,1139.895933,2374.203687
18,0.0085,-2227.51631,777.7948064,2467.468264
19,0.009,-2377.641291,396.5417907,2499.975583
20,0.0095,-2469.220851,5.52459996,2470.925207
21,0.01,-2500,-385.6286247,2381.032451
22,0.0105,-2469.220851,-767.2863928,2232.510774
23,0.011,-2377.641291,-1130.051023,2029.017273
24,0.0115,-2227.51631,-1464.990047,1775.562633
25,0.012,-2022.542486,-1763.856155,1478.387747
26,0.0125,-1767.766953,-2019.290269,1144.810049
27,0.013,-1469.463131,-2225.002756,783.0433286
28,0.0135,-1134.976249,-2375.92829,401.9954822
29,0.014,-772.5424859,-2468.350585,11.04917294
30,0.0145,-391.0861626,-2499.993896,-380.1692037
31,0.015,8.42235E-12,-2470.07906,-762.0265528
32,0.0155,391.0861626,-2379.342681,-1125.120279
33,0.016,772.5424859,-2230.018987,-1460.50981
34,0.0165,1134.976249,-2025.784826,-1759.936742
35,0.017,1469.463131,-1771.669119,-2016.028191
36,0.0175,1767.766953,-1473.929038,-2222.478335
37,0.018,2022.542486,-1139.895933,-2374.203687
38,0.0185,2227.51631,-777.7948064,-2467.468264
39,0.019,2377.641291,-396.5417907,-2499.975583
40,0.0195,2469.220851,-5.52459996,-2470.925207
41,0.02,2500,385.6286247,-2381.032451
42,0.0205,2469.220851,767.2863928,-2232.510774
43,0.021,2377.641291,1130.051023,-2029.017273
44,0.0215,2227.51631,1464.990047,-1775.562633
45,0.022,2022.542486,1763.856155,-1478.387747
46,0.0225,1767.766953,2019.290269,-1144.810049
47,0.023,1469.463131,2225.002756,-783.0433286
48,0.0235,1134.976249,2375.92829,-401.9954822
49,0.024,772.5424859,2468.350585,-11.04917294
50,0.0245,391.0861626,2499.993896,380.1692037
51,0.025,-1.47774E-11,2470.07906,762.0265528
52,0.0255,-391.0861626,2379.342681,1125.120279
53,0.026,-772.5424859,2230.018987,1460.50981
54,0.0265,-1134.976249,2025.784826,1759.936742
55,0.027,-1469.463131,1771.669119,2016.028191
56,0.0275,-1767.766953,1473.929038,2222.478335
57,0.028,-2022.542486,1139.895933,2374.203687
58,0.0285,-2227.51631,777.7948064,2467.468264
59,0.029,-2377.641291,396.5417907,2499.975583
60,0.0295,-2469.220851,5.52459996,2470.925207
61,0.03,-2500,-385.6286247,2381.032451
62,0.0305,-2469.220851,-767.2863928,2232.510774
63,0.031,-2377.641291,-1130.051023,2029.017273
64,0.0315,-2227.51631,-1464.990047,1775.562633
65,0.032,-2022.542486,-1763.856155,1478.387747
66,0.0325,-1767.766953,-2019.290269,1144.810049
67,0.033,-1469.463131,-2225.002756,783.0433286
68,0.0335,-1134.976249,-2375.92829,401.9954822
69,0.034,-772.5424859,-2468.350585,11.04917294
70,0.0345,-391.0861626,-2499.993896,-380.1692037
71,0.035,2.11325E-11,-2470.07906,-762.0265528
72,0.0355,391.0861626,-2379.342681,-1125.120279
73,0.036,772.5424859,-2230.018987,-1460.50981
74,0.0365,1134.976249,-2025.784826,-1759.936742
75,0.037,1469.463131,-1771.669119,-2016.028191
76,0.0375,1767.766953,-1473.929038,-2222.478335
77,0.038,2022.542486,-1139.895933,-2374.203687
78,0.0385,2227.51631,-777.7948064,-2467.468264
79,0.039,2377.641291,-396.5417907,-2499.975583
80,0.0395,2469.220851,-5.52459996,-2470.925207
81,0.04,2500,385.6286247,-2381.032451
82,0.0405,2469.220851,767.2863928,-2232.510774
83,0.041,2377.641291,1130.051023,-2029.017273
84,0.0415,2227.51631,1464.990047,-1775.562633
85,0.042,2022.542486,1763.856155,-1478.387747
86,0.0425,1767.766953,2019.290269,-1144.810049
87,0.043,1469.463131,2225.002756,-783.0433286
88,0.0435,1134.976249,2375.92829,-401.9954822
89,0.044,772.5424859,2468.350585,-11.04917294
90,0.0445,391.0861626,2499.993896,380.1692037
91,0.045,-2.52671E-11,2470.07906,762.0265528
92,0.0455,-391.0861626,2379.342681,1125.120279
93,0.046,-772.5424859,2230.018987,1460.50981
94,0.0465,-1134.976249,2025.784826,1759.936742
95,0.047,-1469.463131,1771.669119,2016.028191
96,0.0475,-1767.766953,1473.929038,2222.478335
97,0.048,-2022.542486,1139.895933,2374.203687
98,0.0485,-2227.51631,777.7948064,2467.468264
99,0.049,-2377.641291,396.5417907,2499.975583
100,0.0495,-2469.220851,5.52459996,2470.925207
101,0.05,-2500,-385.6286247,2381.032451
102,0.0505,-2469.220851,-767.2863928,2232.510774
103,0.051,-2377.641291,-1130.051023,2029.017273
104,0.0515,-2227.51631,-1464.990047,1775.562633
105,0.052,-2022.542486,-1763.856155,1478.387747
106,0.0525,-1767.766953,-2019.290269,1144.810049
107,0.053,-1469.463131,-2225.002756,783.0433286
108,0.0535,-1134.976249,-2375.92829,401.9954822
109,0.054,-772.5424859,-2468.350585,11.04917294
110,0.0545,-391.0861626,-2499.993896,-380.1692037
111,0.055,2.94017E-11,-2470.07906,-762.0265528
112,0.0555,391.0861626,-2379.342681,-1125.120279
113,0.056,772.5424859,-2230.018987,-1460.50981
114,0.0565,1134.976249,-2025.784826,-1759.936742
115,0.057,1469.463131,-1771.669119,-2016.028191
116,0.0575,1767.766953,-1473.929038,-2222.478335
117,0.058,2022.542486,-1139.895933,-2374.203687
118,0.0585,2227.51631,-777.7948064,-2467.468264
119,0.059,2377.641291,-396.5417907,-2499.975583
120,0.0595,2469.220851,-5.52459996,-2470.925207
121,0.06,2500,385.6286247,-2381.032451
122,0.0605,2469.220851,767.2863928,-2232.510774
123,0.061,2377.641291,1130.051023,-2029.017273
124,0.0615,2227.51631,1464.990047,-1775.562633
125,0.062,2022.542486,1763.856155,-1478.387747
126,0.0625,1767.766953,2019.290269,-1144.810049
127,0.063,1469.463131,2225.002756,-783.0433286
128,0.0635,1134.976249,2375.92829,-401.9954822
129,0.064,772.5424859,2468.350585,-11.04917294
130,0.0645,391.0861626,2499.993896,380.1692037
131,0.065,-3.79772E-11,2470.07906,762.0265528
132,0.0655,-391.0861626,2379.342681,1125.120279
133,0.066,-772.5424859,2230.018987,1460.50981
134,0.0665,-1134.976249,2025.784826,1759.936742
135,0.067,-1469.463131,1771.669119,2016.028191
136,0.0675,-1767.766953,1473.929038,2222.478335
137,0.068,-2022.542486,1139.895933,2374.203687
138,0.0685,-2227.51631,777.7948064,2467.468264
139,0.069,-2377.641291,396.5417907,2499.975583
140,0.0695,-2469.220851,5.52459996,2470.925207
141,0.07,-2500,-385.6286247,2381.032451
142,0.0705,-2469.220851,-767.2863928,2232.510774
143,0.071,-2377.641291,-1130.051023,2029.017273
144,0.0715,-2227.51631,-1464.990047,1775.562633
145,0.072,-2022.542486,-1763.856155,1478.387747
146,0.0725,-1767.766953,-2019.290269,1144.810049
147,0.073,-1469.463131,-2225.002756,783.0433286
148,0.0735,-1134.976249,-2375.92829,401.9954822
149,0.074,-772.5424859,-2468.350585,11.04917294
150,0.0745,-391.0861626,-2499.993896,-380.1692037
151,0.075,3.76709E-11,-2470.07906,-762.0265528
152,0.0755,391.0861626,-2379.342681,-1125.120279
153,0.076,772.5424859,-2230.018987,-1460.50981
154,0.0765,1134.976249,-2025.784826,-1759.936742
155,0.077,1469.463131,-1771.669119,-2016.028191
156,0.0775,1767.766953,-1473.929038,-2222.478335
157,0.078,2022.542486,-1139.895933,-2374.203687
158,0.0785,2227.51631,-777.7948064,-2467.468264
159,0.079,2377.641291,-396.5417907,-2499.975583
160,0.0795,2469.220851,-5.52459996,-2470.925207
161,0.08,2500,385.6286247,-2381.032451
162,0.0805,2469.220851,767.2863928,-2232.510774
163,0.081,2377.641291,1130.051023,-2029.017273
164,0.0815,2227.51631,1464.990047,-1775.562633
165,0.082,2022.542486,1763.856155,-1478.387747
166,0.0825,1767.766953,2019.290269,-1144.810049
167,0.083,1469.463131,2225.002756,-783.0433286
168,0.0835,1134.976249,2375.92829,-401.9954822
169,0.084,772.5424859,2468.350585,-11.04917294
170,0.0845,391.0861626,2499.993896,380.1692037
171,0.085,-4.62464E-11,2470.07906,762.0265528
172,0.0855,-391.0861626,2379.342681,1125.120279
173,0.086,-772.5424859,2230.018987,1460.50981
174,0.0865,-1134.976249,2025.784826,1759.936742
175,0.087,-1469.463131,1771.669119,2016.028191
176,0.0875,-1767.766953,1473.929038,2222.478335
177,0.088,-2022.542486,1139.895933,2374.203687
178,0.0885,-2227.51631,777.7948064,2467.468264
179,0.089,-2377.641291,396.5417907,2499.975583
180,0.0895,-2469.220851,5.52459996,2470.925207
181,0.09,-2500,-385.6286247,2381.032451
182,0.0905,-2469.220851,-767.2863928,2232.510774
183,0.091,-2377.641291,-1130.051023,2029.017273
184,0.0915,-2227.51631,-1464.990047,1775.562633
185,0.092,-2022.542486,-1763.856155,1478.387747
186,0.0925,-1767.766953,-2019.290269,1144.810049
187,0.093,-1469.463131,-2225.002756,783.0433286
188,0.0935,-1134.976249,-2375.92829,401.9954822
189,0.094,-772.5424859,-2468.350585,11.04917294
190,0.0945,-391.0861626,-2499.993896,-380.1692037
191,0.095,5.48219E-11,-2470.07906,-762.0265528
192,0.0955,391.0861626,-2379.342681,-1125.120279
193,0.096,772.5424859,-2230.018987,-1460.50981
194,0.0965,1134.976249,-2025.784826,-1759.936742
195,0.097,1469.463131,-1771.669119,-2016.028191
196,0.0975,1767.766953,-1473.929038,-2222.478335
197,0.098,2022.542486,-1139.895933,-2374.203687
198,0.0985,2227.51631,-777.7948064,-2467.468264
199,0.099,2377.641291,-396.5417907,-2499.975583
200,0.0995,2469.220851,-5.52459996,-2470.925207
201,0.1,2500,385.6286247,-2381.032451
202,0.1005,2469.220851,767.2863928,-2232.510774
203,0.101,2377.641291,1130.051023,-2029.017273
204,0.1015,2227.51631,1464.990047,-1775.562633
205,0.102,2022.542486,1763.856155,-1478.387747
206,0.1025,1767.766953,2019.290269,-1144.810049
207,0.103,1469.463131,2225.002756,-783.0433286
208,0.1035,1134.976249,2375.92829,-401.9954822
209,0.104,772.5424859,2468.350585,-11.04917294
210,0.1045,391.0861626,2499.993896,380.1692037
211,0.105,-5.45156E-11,2470.07906,762.0265528
212,0.1055,-391.0861626,2379.342681,1125.120279
213,0.106,-772.5424859,2230.018987,1460.50981
214,0.1065,-1134.976249,2025.784826,1759.936742
215,0.107,-1469.463131,1771.669119,2016.028191
216,0.1075,-1767.766953,1473.929038,2222.478335
217,0.108,-2022.542486,1139.895933,2374.203687
218,0.1085,-2227.51631,777.7948064,2467.468264
219,0.109,-2377.641291,396.5417907,2499.975583
220,0.1095,-2469.220851,5.52459996,2470.925207
221,0.11,-2500,-385.6286247,2381.032451
222,0.1105,-2469.220851,-767.2863928,2232.510774
223,0.111,-2377.641291,-1130.051023,2029.017273
224,0.1115,-2227.51631,-1464.990047,1775.562633
225,0.112,-2022.542486,-1763.856155,1478.387747
226,0.1125,-1767.766953,-2019.290269,1144.810049
227,0.113,-1469.463131,-2225.002756,783.0433286
228,0.1135,-1134.976249,-2375.92829,401.9954822
229,0.114,-772.5424859,-2468.350585,11.04917294
230,0.1145,-391.0861626,-2499.993896,-380.1692037
231,0.115,6.30911E-11,-2470.07906,-762.0265528
232,0.1155,391.0861626,-2379.342681,-1125.120279
233,0.116,772.5424859,-2230.018987,-1460.50981
234,0.1165,1134.976249,-2025.784826,-1759.936742
235,0.117,1469.463131,-1771.669119,-2016.028191
236,0.1175,1767.766953,-1473.929038,-2222.478335
237,0.118,2022.542486,-1139.895933,-2374.203687
238,0.1185,2227.51631,-777.7948064,-2467.468264
239,0.119,2377.641291,-396.5417907,-2499.975583
240,0.1195,2469.220851,-5.52459996,-2470.925207
241,0.12,2500,385.6286247,-2381.032451
242,0.1205,2469.220851,767.2863928,-2232.510774
243,0.121,2377.641291,1130.051023,-2029.017273
244,0.1215,2227.51631,1464.990047,-1775.562633
245,0.122,2022.542486,1763.856155,-1478.387747
246,0.1225,1767.766953,2019.290269,-1144.810049
247,0.123,1469.463131,2225.002756,-783.0433286
248,0.1235,1134.976249,2375.92829,-401.9954822
249,0.124,772.5424859,2468.350585,-11.04917294
250,0.1245,391.0861626,2499.993896,380.1692037
251,0.125,-7.16666E-11,2470.07906,762.0265528
252,0.1255,-391.0861626,2379.342681,1125.120279
253,0.126,-772.5424859,2230.018987,1460.50981
254,0.1265,-1134.976249,2025.784826,1759.936742
255,0.127,-1469.463131,1771.669119,2016.028191
256,0.1275,-1767.766953,1473.929038,2222.478335
257,0.128,-2022.542486,1139.895933,2374.203687
258,0.1285,-2227.51631,777.7948064,2467.468264
259,0.129,-2377.641291,396.5417907,2499.975583
260,0.1295,-2469.220851,5.52459996,2470.925207
261,0.13,-2500,-385.6286247,2381.032451
262,0.1305,-2469.220851,-767.2863928,2232.510774
263,0.131,-2377.641291,-1130.051023,2029.017273
264,0.1315,-2227.51631,-1464.990047,1775.562633
265,0.132,-2022.542486,-1763.856155,1478.387747
266,0.1325,-1767.766953,-2019.290269,1144.810049
267,0.133,-1469.463131,-2225.002756,783.0433286
268,0.1335,-1134.976249,-2375.92829,401.9954822
269,0.134,-772.5424859,-2468.350585,11.04917294
270,0.1345,-391.0861626,-2499.993896,-380.1692037
271,0.135,8.02421E-11,-2470.07906,-762.0265528
272,0.1355,391.0861626,-2379.342681,-1125.120279
273,0.136,772.5424859,-2230.018987,-1460.50981
274,0.1365,1134.976249,-2025.784826,-1759.936742
275,0.137,1469.463131,-1771.669119,-2016.028191
276,0.1375,1767.766953,-1473.929038,-2222.478335
277,0.138,2022.542486,-1139.895933,-2374.203687
278,0.1385,2227.51631,-777.7948064,-2467.468264
279,0.139,2377.641291,-396.5417907,-2499.975583
280,0.1395,2469.220851,-5.52459996,-2470.925207
281,0.14,2500,385.6286247,-2381.032451
282,0.1405,2469.220851,767.2863928,-2232.510774
283,0.141,2377.641291,1130.051023,-2029.017273
284,0.1415,2227.51631,1464.990047,-1775.562633
285,0.142,2022.542486,1763.856155,-1478.387747
286,0.1425,1767.766953,2019.290269,-1144.810049
287,0.143,1469.463131,2225.002756,-783.0433286
288,0.1435,1134.976249,2375.92829,-401.9954822
289,0.144,772.5424859,2468.350585,-11.04917294
290,0.1445,391.0861626,2499.993896,380.1692037
291,0.145,-8.88176E-11,2470.07906,762.0265528
292,0.1455,-391.0861626,2379.342681,1125.120279
293,0.146,-772.5424859,2230.018987,1460.50981
294,0.1465,-1134.976249,2025.784826,1759.936742
295,0.147,-1469.463131,1771.669119,2016.028191
296,0.1475,-1767.766953,1473.929038,2222.478335
297,0.148,-2022.542486,1139.895933,2374.203687
298,0.1485,-2227.51631,777.7948064,2467.468264
299,0.149,-2377.641291,396.5417907,2499.975583
300,0.1495,-2469.220851,5.52459996,2470.925207
301,0.15,-2500,-385.6286247,2381.032451
302,0.1505,-2469.220851,-767.2863928,2232.510774
303,0.151,-2377.641291,-1130.051023,2029.017273
304,0.1515,-2227.51631,-1464.990047,1775.562633
305,0.152,-2022.542486,-1763.856155,1478.387747
306,0.1525,-1767.766953,-2019.290269,1144.810049
307,0.153,-1469.463131,-2225.002756,783.0433286
308,0.1535,-1134.976249,-2375.92829,401.9954822
309,0.154,-772.5424859,-2468.350585,11.04917294
310,0.1545,-391.0861626,-2499.993896,-380.1692037
311,0.155,7.96295E-11,-2470.07906,-762.0265528
312,0.1555,391.0861626,-2379.342681,-1125.120279
313,0.156,772.5424859,-2230.018987,-1460.50981
314,0.1565,1134.976249,-2025.784826,-1759.936742
315,0.157,1469.463131,-1771.669119,-2016.028191
316,0.1575,1767.766953,-1473.929038,-2222.478335
317,0.158,2022.542486,-1139.895933,-2374.203687
318,0.1585,2227.51631,-777.7948064,-2467.468264
319,0.159,2377.641291,-396.5417907,-2499.975583
320,0.1595,2469.220851,-5.52459996,-2470.925207
321,0.16,2500,385.6286247,-2381.032451
322,0.1605,2469.220851,767.2863928,-2232.510774
323,0.161,2377.641291,1130.051023,-2029.017273
324,0.1615,2227.51631,1464.990047,-1775.562633
325,0.162,2022.542486,1763.856155,-1478.387747
326,0.1625,1767.766953,2019.290269,-1144.810049
327,0.163,1469.463131,2225.002756,-783.0433286
328,0.1635,1134.976249,2375.92829,-401.9954822
329,0.164,772.5424859,2468.350585,-11.04917294
330,0.1645,391.0861626,2499.993896,380.1692037
331,0.165,-8.8205E-11,2470.07906,762.0265528
332,0.1655,-391.0861626,2379.342681,1125.120279
333,0.166,-772.5424859,2230.018987,1460.50981
334,0.1665,-1134.976249,2025.784826,1759.936742
335,0.167,-1469.463131,1771.669119,2016.028191
336,0.1675,-1767.766953,1473.929038,2222.478335
337,0.168,-2022.542486,1139.895933,2374.203687
338,0.1685,-2227.51631,777.7948064,2467.468264
339,0.169,-2377.641291,396.5417907,2499.975583
340,0.1695,-2469.220851,5.52459996,2470.925207
341,0.17,-2500,-385.6286247,2381.032451
342,0.1705,-2469.220851,-767.2863928,2232.510774
343,0.171,-2377.641291,-1130.051023,2029.017273
344,0.1715,-2227.51631,-1464.990047,1775.562633
345,0.172,-2022.542486,-1763.856155,1478.387747
346,0.1725,-1767.766953,-2019.290269,1144.810049
347,0.173,-1469.463131,-2225.002756,783.0433286
348,0.1735,-1134.976249,-2375.92829,401.9954822
349,0.174,-772.5424859,-2468.350585,11.04917294
350,0.1745,-391.0861626,-2499.993896,-380.1692037
351,0.175,9.67805E-11,-2470.07906,-762.0265528
352,0.1755,391.0861626,-2379.342681,-1125.120279
353,0.176,772.5424859,-2230.018987,-1460.50981
354,0.1765,1134.976249,-2025.784826,-1759.936742
355,0.177,1469.463131,-1771.669119,-2016.028191
356,0.1775,1767.766953,-1473.929038,-2222.478335
357,0.178,2022.542486,-1139.895933,-2374.203687
358,0.1785,2227.51631,-777.7948064,-2467.468264
359,0.179,2377.641291,-396.5417907,-2499.975583
360,0.1795,2469.220851,-5.52459996,-2470.925207
361,0.18,2500,385.6286247,-2381.032451
362,0.1805,2469.220851,767.2863928,-2232.510774
363,0.181,2377.641291,1130.051023,-2029.017273
364,0.1815,2227.51631,1464.990047,-1775.562633
365,0.182,2022.542486,1763.856155,-1478.387747
366,0.1825,1767.766953,2019.290269,-1144.810049
367,0.183,1469.463131,2225.002756,-783.0433286
368,0.1835,1134.976249,2375.92829,-401.9954822
369,0.184,772.5424859,2468.350585,-11.04917294
370,0.1845,391.0861626,2499.993896,380.1692037
371,0.185,-1.05356E-10,2470.07906,762.0265528
372,0.1855,-391.0861626,2379.342681,1125.120279
373,0.186,-772.5424859,2230.018987,1460.50981
374,0.1865,-1134.976249,2025.784826,1759.936742
375,0.187,-1469.463131,1771.669119,2016.028191
376,0.1875,-1767.766953,1473.929038,2222.478335
377,0.188,-2022.542486,1139.895933,2374.203687
378,0.1885,-2227.51631,777.7948064,2467.468264
379,0.189,-2377.641291,396.5417907,2499.975583
380,0.1895,-2469.220851,5.52459996,2470.925207
381,0.19,-2500,-385.6286247,2381.032451
382,0.1905,-2469.220851,-767.2863928,2232.510774
383,0.191,-2377.641291,-1130.051023,2029.017273
384,0.1915,-2227.51631,-1464.990047,1775.562633
385,0.192,-2022.542486,-1763.856155,1478.387747
386,0.1925,-1767.766953,-2019.290269,1144.810049
387,0.193,-1469.463131,-2225.002756,783.0433286
388,0.1935,-1134.976249,-2375.92829,401.9954822
389,0.194,-772.5424859,-2468.350585,11.04917294
390,0.1945,-391.0861626,-2499.993896,-380.1692037
391,0.195,1.13931E-10,-2470.07906,-762.0265528
392,0.1955,391.0861626,-2379.342681,-1125.120279
393,0.196,772.5424859,-2230.018987,-1460.50981
394,0.1965,1134.976249,-2025.784826,-1759.936742
395,0.197,1469.463131,-1771.669119,-2016.028191
396,0.1975,1767.766953,-1473.929038,-2222.478335
397,0.198,2022.542486,-1139.895933,-2374.203687
398,0.1985,2227.51631,-777.7948064,-2467.468264
399,0.199,2377.641291,-396.5417907,-2499.975583
400,0.1995,2469.220851,-5.52459996,-2470.925207
401,0.2,2500,385.6286247,-2381.032451
402,0.2005,2469.220851,767.2863928,-2232.510774
403,0.201,2377.641291,1130.051023,-2029.017273
404,0.2015,2227.51631,1464.990047,-1775.562633
405,0.202,2022.542486,1763.856155,-1478.387747
406,0.2025,1767.766953,2019.290269,-1144.810049
407,0.203,1469.463131,2225.002756,-783.0433286
408,0.2035,1134.976249,2375.92829,-401.9954822
409,0.204,772.5424859,2468.350585,-11.04917294
410,0.2045,391.0861626,2499.993896,380.1692037
411,0.205,-1.22507E-10,2470.07906,762.0265528
412,0.2055,-391.0861626,2379.342681,1125.120279
413,0.206,-772.5424859,2230.018987,1460.50981
414,0.2065,-1134.976249,2025.784826,1759.936742
415,0.207,-1469.463131,1771.669119,2016.028191
416,0.2075,-1767.766953,1473.929038,2222.478335
417,0.208,-2022.542486,1139.895933,2374.203687
418,0.2085,-2227.51631,777.7948064,2467.468264
419,0.209,-2377.641291,396.5417907,2499.975583
420,0.2095,-2469.220851,5.52459996,2470.925207
421,0.21,-2500,-385.6286247,2381.032451
422,0.2105,-2469.220851,-767.2863928,2232.510774
